 ****** HSPICE -- I-2013.12-SP2 64-BIT (May 27 2014) RHEL64 ******              
  Copyright (C) 2014 Synopsys, Inc. All Rights Reserved.                        
  Unpublished-rights reserved under US copyright laws.
  This program is protected by law and is subject to the
  terms and conditions of the license agreement from Synopsys.
  Use of this program is your acceptance to be bound by the
  license agreement. HSPICE is the trademark of Synopsys, Inc.
  Input File: CP1_Vikram_Prasad_Charles_Guan.sp                                 
  Command line options: CP1_Vikram_Prasad_Charles_Guan.sp
 lic:  
 lic: FLEXlm: v10.9.8 
 lic: USER:   cguan2               HOSTNAME: corn15.stanford.edu 
 lic: HOSTID: 001b213a6975         PID:      630 
 lic: Using FLEXlm license file: 
 lic: 27000@cadlic0 
 lic: Checkout 1 hspice 
 lic: License/Maintenance for hspice will expire on 09-dec-2014/2014.09 
 lic: 7(in_use)/200(total) FLOATING license(s) on SERVER 27000@cadlic0 
 lic:   
  
      
 **info** set option symb=1 internally to help for convergence.
 *****************************************************************
 ******  option summary
 ******
 runlvl  = 3         bypass  = 2         
 **info** dc convergence successful at Newton-Raphson method 
 ****** HSPICE -- I-2013.12-SP2 64-BIT (May 27 2014) RHEL64 ******              
 ******  
 * design problem, ee114/214a- 2014

 ****** operating point information tnom=  25.000 temp=  25.000 ******
 ****** operating point status is all       simulation time is     0.     
    node    =voltage      node    =voltage      node    =voltage

 +0:iina    =  -1.3273  0:iinb    =  -1.3273  0:vbiasn  =  -1.0000 
 +0:vbiasp  =   1.0000  0:vdd     =   2.5000  0:vouta   =-493.3011m
 +0:voutb   =-493.3011m 0:vss     =  -2.5000  0:vxa     = 363.3491m
 +0:vxb     = 363.3491m 0:vya     = 684.5253m 0:vyb     = 684.5253m
 +0:vz      =-964.6958m


 **** voltage sources

 subckt                                              
 element  0:vbiasn   0:vbiasp   0:vdd      0:vss     
  volts     -1.0000     1.0000     2.5000    -2.5000 
  current    0.         0.      -242.7757u  242.7757u
  power      0.         0.       606.9393u  606.9393u

     total voltage source power dissipation=    1.2139m       watts



 **** current sources

 subckt                        
 element  0:iina     0:iinb    
  volts     -3.8273     3.8273 
  current    0.         0.     
  power      0.         0.     


     total current source power dissipation=   0.            watts

 **** resistors

 subckt                                                         
 element  0:rl       0:rua      0:rda      0:rub      0:rdb     
  r value   20.0000k  125.0000k  125.0000k  125.0000k  125.0000k
  v drop   -55.5112a    2.1367     2.8633     2.1367     2.8633 
  current -2.776e-21   17.0932u   22.9068u   17.0932u   22.9068u
  power      0.        36.5222u   65.5901u   36.5222u   65.5901u



 **** mosfets


 subckt                                                                    
 element  0:m1a      0:mbias1a  0:ml1a     0:m2a      0:mbias2a  0:ml2a    
 model    0:nmos114. 0:nmos114. 0:pmos114. 0:nmos114. 0:nmos114. 0:nmos114.
 region     Saturati   Saturati   Saturati   Saturati   Saturati   Saturati
  id        39.6989u   39.6989u  -45.5124u   17.5196u   17.5196u   17.5196u
  ibs      -11.7272f    0.         0.       -15.3530f    0.       -31.8453f
  ibd      -28.6335f  -11.7272f   21.3665f  -31.8453f  -15.3530f  -50.0000f
  vgs        1.3273     1.5000    -1.5000     1.3280     1.5000     1.8155 
  vds        1.6906     1.1727    -2.1367     1.6492     1.5353     1.8155 
  vbs       -1.1727     0.         0.        -1.5353     0.        -3.1845 
  vth      806.0654m  500.0000m -500.0000m  880.2458m  500.0000m    1.1610 
  vdsat    521.2128m    1.0000    -1.0000   447.7991m    1.0000   654.4544m
  vod      521.2128m    1.0000    -1.0000   447.7991m    1.0000   654.4544m
  beta     292.2657u   79.3977u   91.0249u  174.7383u   35.0392u   81.8080u
  gam eff  600.0000m  600.0000m  600.0000m  600.0000m  600.0000m  600.0000m
  gm       152.3326u   79.3977u   91.0249u   78.2477u   35.0392u   53.5396u
  gds        3.3958u    1.8750u    3.7500u    1.5039u  555.5556n  803.0824n
  gmb       32.5373u   26.6308u   30.5307u   15.3610u   11.7525u    8.0465u
  cdtot      6.7514f    5.5750f    5.1527f    4.7163f    4.3115f    4.3493f
  cgtot     12.7674f   12.2896f    7.6537f    7.6636f   11.2963f   12.2869f
  cstot     15.3885f   16.1000f   11.9500f    9.9328f   14.8000f   13.9012f
  cbtot      9.5221f    9.5214f    9.5170f    7.0823f    7.9512f    6.0705f
  cgs       10.1667f   10.7000f    6.1000f    6.1000f   10.2000f   10.7000f
  cgd        2.5259f    1.5216f    1.5197f    1.5152f    1.0282f    1.5334f



 subckt                                                                    
 element  0:m3a      0:mbias3a  0:m1b      0:mbias1b  0:ml1b     0:ml2b    
 model    0:nmos114. 0:nmos114. 0:nmos114. 0:nmos114. 0:pmos114. 0:nmos114.
 region     Saturati   Saturati   Saturati   Saturati   Saturati   Saturati
  id        41.2626u   41.2626u   39.6989u   39.6989u  -45.5124u   17.5196u
  ibs      -20.0670f    0.       -11.7272f    0.         0.       -31.8453f
  ibd      -50.0000f  -20.0670f  -28.6335f  -11.7272f   21.3665f  -50.0000f
  vgs        1.1778     1.5000     1.3273     1.5000    -1.5000     1.8155 
  vds        2.9933     2.0067     1.6906     1.1727    -2.1367     1.8155 
  vbs       -2.0067     0.        -1.1727     0.         0.        -3.1845 
  vth      968.5360m  500.0000m  806.0654m  500.0000m -500.0000m    1.1610 
  vdsat    209.2904m    1.0000   521.2128m    1.0000    -1.0000   654.4544m
  vod      209.2904m    1.0000   521.2128m    1.0000    -1.0000   654.4544m
  beta       1.8840m   82.5251u  292.2657u   79.3977u   91.0249u   81.8080u
  gam eff  600.0000m  600.0000m  600.0000m  600.0000m  600.0000m  600.0000m
  gm       394.3092u   82.5251u  152.3326u   79.3977u   91.0249u   53.5396u
  gds        3.1757u    1.8750u    3.3958u    1.8750u    3.7500u  803.0824n
  gmb       70.6090u   27.6798u   32.5373u   26.6308u   30.5307u    8.0465u
  cdtot     27.7946f    5.1409f    6.7514f    5.5750f    5.1527f    4.3493f
  cgtot     74.6167f   12.3049f   12.7674f   12.2896f    7.6537f   12.2869f
  cstot     75.9299f   16.1000f   15.3885f   16.1000f   11.9500f   13.9012f
  cbtot     30.8750f    9.0719f    9.5221f    9.5214f    9.5170f    6.0705f
  cgs       58.9669f   10.7000f   10.1667f   10.7000f    6.1000f   10.7000f
  cgd       14.7662f    1.5369f    2.5259f    1.5216f    1.5197f    1.5334f



 subckt                                              
 element  0:m2b      0:mbias2b  0:m3b      0:mbias3b 
 model    0:nmos114. 0:nmos114. 0:nmos114. 0:nmos114.
 region     Saturati   Saturati   Saturati   Saturati
  id        17.5196u   17.5196u   41.2626u   41.2626u
  ibs      -15.3530f    0.       -20.0670f    0.     
  ibd      -31.8453f  -15.3530f  -50.0000f  -20.0670f
  vgs        1.3280     1.5000     1.1778     1.5000 
  vds        1.6492     1.5353     2.9933     2.0067 
  vbs       -1.5353     0.        -2.0067     0.     
  vth      880.2458m  500.0000m  968.5360m  500.0000m
  vdsat    447.7991m    1.0000   209.2904m    1.0000 
  vod      447.7991m    1.0000   209.2904m    1.0000 
  beta     174.7383u   35.0392u    1.8840m   82.5251u
  gam eff  600.0000m  600.0000m  600.0000m  600.0000m
  gm        78.2477u   35.0392u  394.3092u   82.5251u
  gds        1.5039u  555.5556n    3.1757u    1.8750u
  gmb       15.3610u   11.7525u   70.6090u   27.6798u
  cdtot      4.7163f    4.3115f   27.7946f    5.1409f
  cgtot      7.6636f   11.2963f   74.6167f   12.3049f
  cstot      9.9328f   14.8000f   75.9299f   16.1000f
  cbtot      7.0823f    7.9512f   30.8750f    9.0719f
  cgs        6.1000f   10.2000f   58.9669f   10.7000f
  cgd        1.5152f    1.0282f   14.7662f    1.5369f



 ******  
 * design problem, ee114/214a- 2014

 ****** ac analysis tnom=  25.000 temp=  25.000 ******
 gainmaxa=  86.5273     at=  17.1791k
             from= 100.0000     to=   1.0000g
 gaindiff=  42.4029k    at=  17.1791k
             from= 100.0000     to=   1.0000g
 f3dba=  80.1594x
 gainmaxb=  86.5273     at=  17.1791k
             from= 100.0000     to=   1.0000g
 f3dbb=  80.1594x

          ***** job concluded
 ****** HSPICE -- I-2013.12-SP2 64-BIT (May 27 2014) RHEL64 ******              
 ******  
 * design problem, ee114/214a- 2014

 ****** job statistics summary tnom=  25.000 temp=  25.000 ******
  
  
 ******  Machine Information  ******
 CPU:
 model name	: Quad-Core AMD Opteron(tm) Processor 2384
 cpu MHz	: 800.000
  
 OS:
 Linux version 3.11.0-24-generic (buildd@lamiak) (gcc version 4.8.1 (Ubuntu/Linaro 4.8.1-10ubuntu8) ) #42-Ubuntu SMP Fri Jul 4 21:19:31 UTC 2014


  ******  HSPICE Threads Information  ******

  Command Line Threads Count :     1
  Available CPU Count        :     8
  Actual Threads Count       :     1


  ******  Circuit Statistics  ******
  # nodes       =      14 # elements   =      30
  # resistors   =       5 # capacitors =       3 # inductors   =       0
  # mutual_inds =       0 # vccs       =       0 # vcvs        =       0
  # cccs        =       0 # ccvs       =       0 # volt_srcs   =       4
  # curr_srcs   =       2 # diodes     =       0 # bjts        =       0
  # jfets       =       0 # mosfets    =      16 # U elements  =       0
  # T elements  =       0 # W elements =       0 # B elements  =       0
  # S elements  =       0 # P elements =       0 # va device   =       0
  # vector_srcs =       0 # N elements =       0


  ******  Runtime Statistics (seconds)  ******

  analysis           time    # points   tot. iter  conv.iter
  op point           0.00           1           9
  ac analysis        0.08        7001        7001
  readin             0.01
  errchk             0.01
  setup              0.00
  output             0.01


           peak memory used        174.89 megabytes
           total cpu time            0.11 seconds
           total elapsed time        1.25 seconds
           job started at     11:08:04 11/30/2014
           job ended   at     11:08:05 11/30/2014


 lic: Release hspice token(s) 
 lic: total license checkout elapse time:        1.05(s)
